
**** 11/07/25 19:35:12 *** PSpice 25.1.0 (14 September 2025) ** ID# 0 ********

 ** Profile: "SCHEMATIC1-p1_ac"  [ c:\users\alexc\appdata\roaming\spb_data\cdssetup\workspace\projects\proiect_cef2p1\proiect_cef2p1-


 ****     CIRCUIT DESCRIPTION


******************************************************************************




** Creating circuit file "p1_ac.cir" 
** WARNING: THIS AUTOMATICALLY GENERATED FILE MAY BE OVERWRITTEN BY SUBSEQUENT SIMULATIONS

*Libraries: 
* Profile Libraries :
* Local Libraries :
.LIB "C:/Users/alexc/Downloads/Modele PSpice_Anexa 1/Lib_ModelePSpice_Anexa_1/Lib_ModelePSpice_Anexa_1/Modele_A1_lib/BC817-25.lib" 
.LIB "C:/Users/alexc/Downloads/Modele PSpice_Anexa 1/Lib_ModelePSpice_Anexa_1/Lib_ModelePSpice_Anexa_1/Modele_A1_lib/MJD32CG.lib" 
.LIB "C:/Users/alexc/Downloads/Modele PSpice_Anexa 1/Lib_ModelePSpice_Anexa_1/Lib_ModelePSpice_Anexa_1/Modele_A1_lib/BC846B.lib" 
.LIB "C:/Users/alexc/Downloads/Modele PSpice_Anexa 1/Lib_ModelePSpice_Anexa_1/Lib_ModelePSpice_Anexa_1/Modele_A1_lib/BC856B.lib" 
.LIB "C:/Users/alexc/Downloads/Modele PSpice_Anexa 1/Lib_ModelePSpice_Anexa_1/Lib_ModelePSpice_Anexa_1/Modele_A1_lib/BZX84C2V7.lib" 
* From [PSPICE NETLIST] section of C:\Users\alexc\AppData\Roaming\SPB_Data\cdssetup\OrCAD_PSpice\25.1.0\PSpice.ini file:
.lib "nom.lib" 

*Analysis directives: 
.OP
.OPTIONS ADVCONV
.PROBE64 V(alias(*)) I(alias(*)) W(alias(*)) D(alias(*)) NOISE(alias(*)) 
.INC "..\SCHEMATIC1.net" 



**** INCLUDING SCHEMATIC1.net ****
* source PROIECT_CEF2P1
D_D1         0 N00343 BZX84-C2V7 
V_V1         N00085 0 10Vdc
Q_Q1         N00280 N00265 N00085 QBC856B 
R_R1         N00265 N00085  100 TC=0,0 
Q_Q2         N00343 N00280 N00265 QBC856B 
R_R2         0 N00280  1k TC=0,0 
Q_Q3         N04257 N00343 N00584 QBC846B 
Q_Q4         N02260 N09156 N00584 QBC846B 
R_R3         N04257 N00085  5k TC=0,0 
R_R4         N02260 N00085  5k TC=0,0 
D_D2         N00343 N10541 D1N4148 
R_R6         N00343 N00085  1k TC=0,0 
Q_Q5         N00584 N00343 N010211 QBC846B 
R_R9         N09148 N02434  1.8k TC=0,0 
R_R10         0 N09152  2.7k TC=0,0 
R_RL         0 N02434  200 TC=0,0 
X_R11         N09148 N09156 N09152 POT PARAMS: SET=0.5 VALUE=10K
Q_Q8         N02260 N02271 N02434 QBC817-25 
R_R12         0 N010211  220 TC=0,0 
D_D3         N10541 0 D1N4148 
Q_Q9         N00085 N02260 N02271 QBC846B 
R_R13         N02271 N02434  2.2 TC=0,0 
Q_Q10         N02260 N12091 0 QBC846B 
X_R14         0 N12091 N00343 POT PARAMS: SET=0.65 VALUE=10K

**** RESUMING p1_ac.cir ****
.END

**** 11/07/25 19:35:12 *** PSpice 25.1.0 (14 September 2025) ** ID# 0 ********

 ** Profile: "SCHEMATIC1-p1_ac"  [ c:\users\alexc\appdata\roaming\spb_data\cdssetup\workspace\projects\proiect_cef2p1\proiect_cef2p1-


 ****     Diode MODEL PARAMETERS


******************************************************************************




               BZX84-C2V7      D1N4148         
          IS  110.880000E-18    2.682000E-09 
           N     .92657         1.836        
         ISR    1.515900E-06    1.565000E-09 
         IKF  147.68             .04417      
          BV    2.7639        100            
         IBV     .06977       100.000000E-06 
          RS     .85899          .5664       
          TT   17.889000E-09   11.540000E-09 
         CJO  344.690000E-12    4.000000E-12 
          VJ     .72935          .5          
           M     .31964          .3333       


**** 11/07/25 19:35:12 *** PSpice 25.1.0 (14 September 2025) ** ID# 0 ********

 ** Profile: "SCHEMATIC1-p1_ac"  [ c:\users\alexc\appdata\roaming\spb_data\cdssetup\workspace\projects\proiect_cef2p1\proiect_cef2p1-


 ****     BJT MODEL PARAMETERS


******************************************************************************




               QBC817-25       QBC846B         QBC856B         
               NPN             NPN             PNP             
       LEVEL    1               1               1            
          IS   91.980000E-15   18.220000E-15   20.140000E-15 
          BF  338.8           324.4           315.3          
          NF    1.003            .9932           .9974       
         VAF  107.9            82              39.15         
         IKF     .4913           .109            .079        
         ISE  446.800000E-18  289.400000E-18    6.578000E-15 
          NE    1.65            1.4             1.45         
          BR   29.48            8.29            8.68         
          NR    1.002            .9931           .9952       
         VAR   25              17.9             9.5          
         IKR     .193            .09             .09         
         ISC    5.109000E-15    9.982000E-12   16.330000E-15 
          NC    1.071           1.763           1.15         
         ISS    0               0               0            
          RB    1              10              10            
         RBM    1               5               5.000000E-06 
         IRB    1.000000E+03    5.000000E-06    5.000000E-06 
          RE     .2126           .649            .663        
          RC     .143            .7014           .718        
         CJE   38.250000E-12   12.440000E-12   11.350000E-12 
         VJE     .7004           .7579           .7071       
         MJE     .364            .3656           .3808       
         CJC   12.700000E-12    3.347000E-12    6.395000E-12 
         VJC     .4431           .5463           .4951       
         MJC     .3983           .391            .44         
        XCJC     .4555           .6193           .6288       
         CJS    0               0               0            
         VJS     .75             .75             .75         
         MJS     .333            .333            .333        
          FC     .905            .979            .9059       
          TF  522.900000E-12  490.800000E-12  654.600000E-12 
         XTF  219.7             9.51            5.387        
         VTF    3.502           2.927           6.245        
         ITF    7.257            .3131           .2108       
          TR   70.000000E-12   90.000000E-09   55.000000E-09 
          KF    0               0               0            
          AF    1               1               1            
          CN    2.42            2.42            2.2          
           D     .87             .87             .52         


**** 11/07/25 19:35:12 *** PSpice 25.1.0 (14 September 2025) ** ID# 0 ********

 ** Profile: "SCHEMATIC1-p1_ac"  [ c:\users\alexc\appdata\roaming\spb_data\cdssetup\workspace\projects\proiect_cef2p1\proiect_cef2p1-


 ****     SMALL SIGNAL BIAS SOLUTION       TEMPERATURE =   27.000 DEG C


******************************************************************************



 NODE   VOLTAGE     NODE   VOLTAGE     NODE   VOLTAGE     NODE   VOLTAGE


(N00085)   10.0000 (N00265)    9.2991 (N00280)    8.6095 (N00343)    1.4918     

(N00584)     .8260 (N02260)    3.5368 (N02271)    2.8221 (N02434)    2.7910     

(N04257)     .8592 (N09148)    2.4408 (N09152)     .5148 (N09156)    1.4680     

(N10541)     .7459 (N12091)     .5221 (N010211)     .8003                   




    VOLTAGE SOURCE CURRENTS
    NAME         CURRENT

    V_V1        -4.136E-02

    TOTAL POWER DISSIPATION   4.14E-01  WATTS


**** 11/07/25 19:35:12 *** PSpice 25.1.0 (14 September 2025) ** ID# 0 ********

 ** Profile: "SCHEMATIC1-p1_ac"  [ c:\users\alexc\appdata\roaming\spb_data\cdssetup\workspace\projects\proiect_cef2p1\proiect_cef2p1-


 ****     OPERATING POINT INFORMATION      TEMPERATURE =   27.000 DEG C


******************************************************************************






**** DIODES


NAME         D_D1        D_D2        D_D3      
MODEL        BZX84-C2V7  D1N4148     D1N4148   
ID          -2.16E-06    1.48E-02    1.48E-02 
VD          -1.49E+00    7.46E-01    7.46E-01 
REQ          4.40E+06    3.61E+00    3.61E+00 
CAP          2.41E-10    3.20E-09    3.20E-09 


**** BIPOLAR JUNCTION TRANSISTORS


NAME         Q_Q1        Q_Q2        Q_Q3        Q_Q4        Q_Q5      
MODEL        QBC856B     QBC856B     QBC846B     QBC846B     QBC846B   
IB          -3.29E-05   -2.22E-05    1.32E-04    3.90E-06    4.41E-04 
IC          -8.59E-03   -7.02E-03    1.83E-03    1.23E-03    3.20E-03 
VBE         -7.01E-01   -6.90E-01    6.66E-01    6.42E-01    6.92E-01 
VBC          6.90E-01    7.12E+00    6.33E-01   -2.07E+00    6.66E-01 
VCE         -1.39E+00   -7.81E+00    3.32E-02    2.71E+00    2.57E-02 
BETADC       2.61E+02    3.16E+02    1.39E+01    3.16E+02    7.25E+00 
GM           3.01E-01    2.53E-01    7.32E-02    4.74E-02    1.29E-01 
RPI          7.90E+02    1.17E+03    2.73E+03    6.59E+03    1.12E+03 
RX           2.54E+00    2.97E+00    5.69E+00    7.73E+00    5.40E+00 
RO           4.31E+03    6.19E+03    2.95E+01    6.58E+04    8.68E+00 
CBE          2.40E-10    2.02E-10    7.90E-11    4.79E-11    1.49E-10 
CBC          2.75E-12    1.21E-12    3.28E-09    1.12E-12    1.16E-08 
CJS          0.00E+00    0.00E+00    0.00E+00    0.00E+00    0.00E+00 
BETAAC       2.37E+02    2.95E+02    2.00E+02    3.12E+02    1.45E+02 
CBX/CBX2     1.62E-12    7.13E-13    2.53E-11    6.91E-13    3.20E-11 
FT/FT2       1.96E+08    1.97E+08    3.44E+06    1.52E+08    1.75E+06 



NAME         Q_Q8        Q_Q9        Q_Q10     
MODEL        QBC817-25   QBC846B     QBC846B   
IB          -3.13E-14    4.71E-05    3.81E-08 
IC           1.09E-12    1.41E-02    1.23E-05 
VBE          3.11E-02    7.15E-01    5.22E-01 
VBC         -7.15E-01   -6.46E+00   -3.01E+00 
VCE          7.46E-01    7.18E+00    3.54E+00 
BETADC      -3.48E+01    2.99E+02    3.22E+02 
GM           1.18E-11    4.93E-01    4.78E-04 
RPI          1.68E+13    5.45E+02    6.76E+05 
RX           1.00E+00    6.09E+00    9.91E+00 
RO           9.85E+11    6.04E+03    6.72E+06 
CBE          3.89E-11    2.79E-10    1.93E-11 
CBC          3.95E-12    7.65E-13    9.96E-13 
CJS          0.00E+00    0.00E+00    0.00E+00 
BETAAC       1.98E+02    2.69E+02    3.23E+02 
CBX/CBX2     4.72E-12    4.70E-13    6.12E-13 
FT/FT2       3.94E-02    2.81E+08    3.64E+06 



          JOB CONCLUDED

**** 11/07/25 19:35:12 *** PSpice 25.1.0 (14 September 2025) ** ID# 0 ********

 ** Profile: "SCHEMATIC1-p1_ac"  [ c:\users\alexc\appdata\roaming\spb_data\cdssetup\workspace\projects\proiect_cef2p1\proiect_cef2p1-


 ****     JOB STATISTICS SUMMARY


******************************************************************************



  Total job time (using Solver 1)   =         .03
